,28
18,6A,12D
1,IL1,,,In,0.001414,,,-495,510
2,IL2,,,In,0.001414,,,0,24
3,IL3,,,In,0.001414,,,0,38
4,IL1',,,In,0.001414,,,0,18
5,IL2',,,In,0.001414,,,0,14
6,IL3',,,In,0.001414,,,-11,0
1,BS1,0
2,BS2,0
3,BS3,0
4,BS4,0
5,BS5,0
6,BS INT1,0
7,BS INT2,0
8,BS INT3,0
9,3d>,0
10,3d>>,0
11,I2f,0
12,I5f,0
50
1
2000,1494
10/03/13,14:13:58.482000
10/03/13,14:13:58.581000
ASCII
1,0,80,20,31,11,9,-7,0,1,0,0,0,0,0,0,0,0,0,0
2,500,1,18,32,12,9,-7,0,1,0,0,0,0,0,0,0,0,0,0
3,1000,-78,18,31,12,8,-7,0,1,0,0,0,0,0,0,0,0,0,0
4,1500,-150,18,32,12,9,-6,0,1,0,0,0,0,0,0,0,0,0,0
5,2000,-240,19,31,12,8,-7,0,1,0,0,0,0,0,0,0,0,0,0
6,2500,-304,18,32,12,9,-7,0,1,0,0,0,0,0,0,0,0,0,0
7,3000,-361,18,31,12,9,-7,0,1,0,0,0,0,0,0,0,0,0,0
8,3500,-408,19,31,15,8,-7,0,1,0,0,0,0,0,0,0,0,0,0
9,4000,-447,20,31,14,9,-7,0,1,0,0,0,0,0,0,0,0,0,0
10,4500,-473,21,31,14,8,-7,0,1,0,0,0,0,0,0,0,0,0,0
11,5000,-491,19,31,15,7,-8,0,1,0,0,0,0,0,0,0,0,0,0
12,5500,-491,18,30,14,8,-8,0,1,0,0,0,0,0,0,0,0,0,0
13,6000,-476,19,30,15,6,-8,0,1,0,0,0,0,0,0,0,0,0,0
14,6500,-456,19,31,15,6,-7,0,1,0,0,0,0,0,0,0,0,0,0
15,7000,-421,18,30,14,8,-8,0,1,0,0,0,0,0,0,0,0,0,0
16,7500,-378,19,30,14,6,-8,0,1,0,0,0,0,0,0,0,0,0,0
17,8000,-322,18,32,13,9,-6,0,1,0,0,0,0,0,0,0,0,0,0
18,8500,-258,19,31,14,8,-7,0,1,0,0,0,0,0,0,0,0,0,0
19,9000,-189,18,30,13,6,-7,0,1,0,0,0,0,0,0,0,0,0,0
20,9500,-98,19,31,14,8,-7,0,1,0,0,0,0,0,0,0,0,0,0
21,10000,-19,20,31,12,9,-7,0,1,0,0,0,0,0,0,0,0,0,0
22,10500,59,19,31,12,8,-7,0,1,0,0,0,0,0,0,0,0,0,0
23,11000,134,18,30,12,8,-8,0,1,0,0,0,0,0,0,0,0,0,0
24,11500,209,19,30,9,8,-8,0,1,0,0,0,0,0,0,0,0,0,0
25,12000,280,18,31,8,7,-7,0,1,0,0,0,0,0,0,0,0,0,0
26,12500,324,18,31,9,6,-6,0,1,0,0,0,0,0,0,0,0,0,0
27,13000,382,18,31,11,8,-7,0,1,0,0,0,0,0,0,0,0,0,0
28,13500,428,19,30,11,8,-7,0,1,0,0,0,0,0,0,0,0,0,0
29,14000,462,19,31,11,9,-7,0,1,0,0,0,0,0,0,0,0,0,0
30,14500,487,18,31,9,8,-6,0,1,0,0,0,0,0,0,0,0,0,0
31,15000,501,18,30,9,8,-7,0,1,0,0,0,0,0,0,0,0,0,0
32,15500,503,18,30,9,6,-8,0,1,0,0,0,0,0,0,0,0,0,0
33,16000,493,19,30,9,8,-8,0,1,0,0,0,0,0,0,0,0,0,0
34,16500,471,19,31,9,8,-7,0,1,0,0,0,0,0,0,0,0,0,0
35,17000,436,18,30,9,8,-7,0,1,0,0,0,0,0,0,0,0,0,0
36,17500,393,19,30,11,8,-8,0,1,0,0,0,0,0,0,0,0,0,0
37,18000,339,18,31,9,8,-7,0,1,0,0,0,0,0,0,0,0,0,0
38,18500,278,19,31,9,9,-7,0,1,0,0,0,0,0,0,0,0,0,0
39,19000,227,19,31,9,8,-8,0,1,0,0,0,0,0,0,0,0,0,0
40,19500,155,18,30,11,6,-8,0,1,0,0,0,0,0,0,0,0,0,0
41,20000,76,18,30,11,8,-8,0,1,0,0,0,0,0,0,0,0,0,0
42,20500,-3,19,30,12,6,-8,0,1,0,0,0,0,0,0,0,0,0,0
43,21000,-78,18,32,12,9,-7,0,1,0,0,0,0,0,0,0,0,0,0
44,21500,-156,18,31,12,8,-7,0,1,0,0,0,0,0,0,0,0,0,0
45,22000,-242,19,31,14,8,-7,0,1,0,0,0,0,0,0,0,0,0,0
46,22500,-309,18,31,13,9,-6,0,1,0,0,0,0,0,0,0,0,0,0
47,23000,-362,19,30,14,8,-7,0,1,0,0,0,0,0,0,0,0,0,0
48,23500,-413,18,30,13,6,-8,0,1,0,0,0,0,0,0,0,0,0,0
49,24000,-447,18,31,12,8,-7,0,1,0,0,0,0,0,0,0,0,0,0
50,24500,-473,18,31,14,7,-8,0,1,0,0,0,0,0,0,0,0,0,0
51,25000,-491,19,30,14,8,-8,0,1,0,0,0,0,0,0,0,0,0,0
52,25500,-491,18,31,14,9,-7,0,1,0,0,0,0,0,0,0,0,0,0
53,26000,-476,19,31,15,8,-7,0,1,0,0,0,0,0,0,0,0,0,0
54,26500,-456,19,31,15,6,-7,0,1,0,0,0,0,0,0,0,0,0,0
55,27000,-421,18,30,14,6,-8,0,1,0,0,0,0,0,0,0,0,0,0
56,27500,-374,18,30,14,6,-7,0,1,0,0,0,0,0,0,0,0,0,0
57,28000,-319,19,31,14,6,-8,0,1,0,0,0,0,0,0,0,0,0,0
58,28500,-257,18,31,13,8,-7,0,1,0,0,0,0,0,0,0,0,0,0
59,29000,-169,20,31,12,8,-7,0,1,0,0,0,0,0,0,0,0,0,0
60,29500,-94,20,31,12,9,-7,0,1,0,0,0,0,0,0,0,0,0,0
61,30000,-17,19,30,12,7,-7,0,1,0,0,0,0,0,0,0,0,0,0
62,30500,62,18,31,11,6,-8,0,1,0,0,0,0,0,0,0,0,0,0
63,31000,139,20,31,11,9,-7,0,1,0,0,0,0,0,0,0,0,0,0
64,31500,212,18,30,9,8,-7,0,1,0,0,0,0,0,0,0,0,0,0
65,32000,282,18,31,8,6,-7,0,1,0,0,0,0,0,0,0,0,0,0
66,32500,324,19,31,11,8,-7,0,1,0,0,0,0,0,0,0,0,0,0
67,33000,383,18,30,11,8,-8,0,1,0,0,0,0,0,0,0,0,0,0
68,33500,428,20,31,9,9,-7,0,1,0,0,0,0,0,0,0,0,0,0
69,34000,462,18,30,9,8,-8,0,1,0,0,0,0,0,0,0,0,0,0
70,34500,488,19,31,9,9,-8,0,1,0,0,0,0,0,0,0,0,0,0
71,35000,500,18,32,9,8,-7,0,1,0,0,0,0,0,0,0,0,0,0
72,35500,503,18,31,9,6,-8,0,1,0,0,0,0,0,0,0,0,0,0
73,36000,493,19,30,9,8,-8,0,1,0,0,0,0,0,0,0,0,0,0
74,36500,470,18,30,9,8,-8,0,1,0,0,0,0,0,0,0,0,0,0
75,37000,436,18,30,9,8,-8,0,1,0,0,0,0,0,0,0,0,0,0
76,37500,393,18,30,9,6,-8,0,1,0,0,0,0,0,0,0,0,0,0
77,38000,337,20,31,9,9,-7,0,1,0,0,0,0,0,0,0,0,0,0
78,38500,275,20,31,9,9,-7,0,1,0,0,0,0,0,0,0,0,0,0
79,39000,226,20,31,9,9,-7,0,1,0,0,0,0,0,0,0,0,0,0
80,39500,151,18,31,11,8,-7,0,1,0,0,0,0,0,0,0,0,0,0
81,40000,74,18,30,12,8,-8,0,1,0,0,0,0,0,0,0,0,0,0
82,40500,-4,19,31,12,8,-7,0,1,0,0,0,0,0,0,0,0,0,0
83,41000,-84,18,30,12,8,-7,0,1,0,0,0,0,0,0,0,0,0,0
84,41500,-158,18,31,14,8,-8,0,1,0,0,0,0,0,0,0,0,0,0
85,42000,-248,18,31,13,8,-7,0,1,0,0,0,0,0,0,0,0,0,0
86,42500,-309,20,31,12,9,-7,0,1,0,0,0,0,0,0,0,0,0,0
87,43000,-364,18,31,14,7,-8,0,1,0,0,0,0,0,0,0,0,0,0
88,43500,-413,18,32,14,9,-7,0,1,0,0,0,0,0,0,0,0,0,0
89,44000,-447,18,33,13,9,-6,0,1,0,0,0,0,0,0,0,0,0,0
90,44500,-473,18,31,14,7,-7,0,1,0,0,0,0,0,0,0,0,0,0
91,45000,-491,18,30,15,6,-8,0,1,0,0,0,0,0,0,0,0,0,0
92,45500,-491,19,31,15,6,-8,0,1,0,0,0,0,0,0,0,0,0,0
93,46000,-482,18,32,14,9,-7,0,1,0,0,0,0,0,0,0,0,0,0
94,46500,-460,20,31,14,9,-7,0,1,0,0,0,0,0,0,0,0,0,0
95,47000,-421,19,31,15,8,-7,0,1,0,0,0,0,0,0,0,0,0,0
96,47500,-378,19,31,15,6,-7,0,1,0,0,0,0,0,0,0,0,0,0
97,48000,-322,20,31,13,8,-7,0,1,0,0,0,0,0,0,0,0,0,0
98,48500,-257,19,31,14,8,-7,0,1,0,0,0,0,0,0,0,0,0,0
99,49000,-170,18,30,13,8,-8,0,1,0,0,0,0,0,0,0,0,0,0
100,49500,-94,20,31,12,9,-7,0,1,0,0,0,0,0,0,0,0,0,0
101,50000,-14,18,31,12,9,-7,0,1,0,0,0,0,0,0,0,0,0,0
102,50500,65,18,31,12,8,-8,0,1,0,0,0,0,0,0,0,0,0,0
103,51000,142,19,31,12,9,-7,0,1,0,0,0,0,0,0,0,0,0,0
104,51500,215,19,30,9,8,-7,0,1,0,0,0,0,0,0,0,0,0,0
105,52000,285,19,30,9,8,-8,0,1,0,0,0,0,0,0,0,0,0,0
106,52500,331,19,31,11,8,-7,0,1,0,0,0,0,0,0,0,0,0,0
107,53000,388,18,30,9,7,-8,0,1,0,0,0,0,0,0,0,0,0,0
108,53500,435,19,31,11,8,-7,0,1,0,0,0,0,0,0,0,0,0,0
109,54000,469,19,30,9,8,-8,0,1,0,0,0,0,0,0,0,0,0,0
110,54500,493,18,30,9,8,-8,0,1,0,0,0,0,0,0,0,0,0,0
111,55000,505,18,30,9,8,-8,0,1,0,0,0,0,0,0,0,0,0,0
112,55500,508,20,31,9,9,-7,0,1,0,0,0,0,0,0,0,0,0,0
113,56000,497,19,31,9,9,-7,0,1,0,0,0,0,0,0,0,0,0,0
114,56500,475,18,31,9,7,-8,0,1,0,0,0,0,0,0,0,0,0,0
115,57000,440,18,31,9,6,-7,0,1,0,0,0,0,0,0,0,0,0,0
116,57500,393,18,30,9,7,-7,0,1,0,0,0,0,0,0,0,0,0,0
117,58000,339,19,31,11,8,-7,0,1,0,0,0,0,0,0,0,0,0,0
118,58500,277,19,31,11,8,-7,0,1,0,0,0,0,0,0,0,0,0,0
119,59000,225,19,31,9,9,-7,0,1,0,0,0,0,0,0,0,0,0,0
120,59500,150,20,31,9,9,-7,0,1,0,0,0,0,0,0,0,0,0,0
121,60000,71,18,30,12,8,-7,0,1,0,0,0,0,0,0,0,0,0,0
122,60500,-8,19,31,12,6,-7,0,1,0,0,0,0,0,0,0,0,0,0
123,61000,-86,20,31,12,8,-7,0,1,0,0,0,0,0,0,0,0,0,0
124,61500,-159,18,33,12,9,-7,0,1,0,0,0,0,0,0,0,0,0,0
125,62000,-249,18,31,12,7,-8,0,1,0,0,0,0,0,0,0,0,0,0
126,62500,-317,19,31,12,7,-7,0,1,0,0,0,0,0,0,0,0,0,0
127,63000,-369,18,30,12,6,-7,0,1,0,0,0,0,0,0,0,0,0,0
128,63500,-417,19,31,12,8,-7,0,1,0,0,0,0,0,0,0,0,0,0
129,64000,-456,18,30,14,8,-8,0,1,0,0,0,0,0,0,0,0,0,0
130,64500,-482,20,31,13,8,-7,0,1,0,0,0,0,0,0,0,0,0,0
131,65000,-491,18,30,15,7,-7,0,1,0,0,0,0,0,0,0,0,0,0
132,65500,-492,19,30,15,6,-8,0,1,0,0,0,0,0,0,0,0,0,0
133,66000,-482,18,30,14,8,-8,0,1,0,0,0,0,0,0,0,0,0,0
134,66500,-456,18,30,14,6,-8,0,1,0,0,0,0,0,0,0,0,0,0
135,67000,-421,19,31,15,7,-7,0,1,0,0,0,0,0,0,0,0,0,0
136,67500,-378,19,31,13,6,-7,0,1,0,0,0,0,0,0,0,0,0,0
137,68000,-319,18,31,12,6,-8,0,1,0,0,0,0,0,0,0,0,0,0
138,68500,-257,19,31,14,8,-8,0,1,0,0,0,0,0,0,0,0,0,0
139,69000,-169,18,30,14,7,-8,0,1,0,0,0,0,0,0,0,0,0,0
140,69500,-91,20,31,13,8,-7,0,1,0,0,0,0,0,0,0,0,0,0
141,70000,-14,21,31,12,9,-7,0,1,0,0,0,0,0,0,0,0,0,0
142,70500,68,18,30,12,7,-7,0,1,0,0,0,0,0,0,0,0,0,0
143,71000,145,19,31,9,9,-7,0,1,0,0,0,0,0,0,0,0,0,0
144,71500,218,18,30,11,8,-7,0,1,0,0,0,0,0,0,0,0,0,0
145,72000,287,19,31,9,8,-7,0,1,0,0,0,0,0,0,0,0,0,0
146,72500,332,21,31,9,9,-7,0,1,0,0,0,0,0,0,0,0,0,0
147,73000,389,18,30,9,8,-11,0,1,0,0,0,0,0,0,0,0,0,0
148,73500,436,18,33,9,8,-8,0,1,0,0,0,0,0,0,0,0,0,0
149,74000,470,19,31,9,6,-7,0,1,0,0,0,0,0,0,0,0,0,0
150,74500,493,20,31,9,14,-7,0,1,0,0,0,0,0,0,0,0,0,0
151,75000,505,19,34,9,10,-7,0,1,0,0,0,0,0,0,0,0,0,0
152,75500,508,20,32,9,8,-9,0,1,0,0,0,0,0,0,0,0,0,0
153,76000,497,19,31,15,9,-8,0,1,0,0,0,0,0,0,0,0,0,0
154,76500,474,16,31,10,8,-7,0,1,0,0,0,0,0,0,0,0,0,0
155,77000,436,18,31,9,9,-7,0,1,0,0,0,0,0,0,0,0,0,0
156,77500,392,20,33,9,9,-7,0,1,0,0,0,0,0,0,0,0,0,0
157,78000,337,18,33,9,7,-6,0,1,0,0,0,0,0,0,0,0,0,0
158,78500,292,19,31,9,8,-7,0,1,0,0,0,0,0,0,0,0,0,0
159,79000,224,18,32,9,7,-7,0,1,0,0,0,0,0,0,0,0,0,0
160,79500,147,19,31,11,8,-7,0,1,0,0,0,0,0,0,0,0,0,0
161,80000,68,19,31,12,8,-7,0,1,0,0,0,0,0,0,0,0,0,0
162,80500,-9,19,31,12,8,-7,0,1,0,0,0,0,0,0,0,0,0,0
163,81000,-87,20,31,12,8,-7,0,1,0,0,0,0,0,0,0,0,0,0
164,81500,-162,18,32,12,9,-7,0,1,0,0,0,0,0,0,0,0,0,0
165,82000,-252,18,33,12,9,-6,0,1,0,0,0,0,0,0,0,0,0,0
166,82500,-317,19,31,12,8,-7,0,1,0,0,0,0,0,0,0,0,0,0
167,83000,-374,18,31,14,7,-8,0,1,0,0,0,0,0,0,0,0,0,0
168,83500,-421,19,31,15,6,-7,0,1,0,0,0,0,0,0,0,0,0,0
169,84000,-456,19,32,13,9,-7,0,1,0,0,0,0,0,0,0,0,0,0
170,84500,-482,19,31,14,7,-7,0,1,0,0,0,0,0,0,0,0,0,0
171,85000,-495,18,33,14,9,-7,0,1,0,0,0,0,0,0,0,0,0,0
172,85500,-491,18,31,15,7,-8,0,1,0,0,0,0,0,0,0,0,0,0
173,86000,-482,18,31,13,8,-7,0,1,0,0,0,0,0,0,0,0,0,0
174,86500,-456,19,31,15,8,-7,0,1,0,0,0,0,0,0,1,0,0,0
175,87000,-421,18,30,13,6,-8,0,1,0,0,0,0,0,0,1,0,0,0
176,87500,-378,20,31,14,9,-7,0,1,0,0,0,0,0,0,1,0,0,0
177,88000,-317,18,30,13,7,-8,0,1,0,0,0,0,0,0,1,0,0,0
178,88500,-257,19,31,14,8,-7,0,1,0,0,0,0,0,0,1,0,0,0
179,89000,-167,22,31,13,9,-7,0,1,0,0,0,0,0,0,1,0,0,0
180,89500,-91,19,30,12,8,-7,0,1,0,0,0,0,0,0,1,0,0,0
181,90000,-10,19,31,14,8,-7,0,1,0,0,0,0,0,0,1,0,0,0
182,90500,68,18,30,13,7,-8,0,1,0,0,0,0,0,0,1,0,0,0
183,91000,147,20,31,12,9,-7,0,1,0,0,0,0,0,0,1,0,0,0
184,91500,220,18,31,11,8,-7,0,1,0,0,0,0,0,0,1,0,0,0
185,92000,290,20,31,9,9,-7,0,1,0,0,0,0,0,0,1,0,0,0
186,92500,336,19,30,12,7,-8,0,1,0,0,0,0,0,0,1,0,0,0
187,93000,391,19,31,12,8,-8,0,1,0,0,0,0,0,0,1,0,0,0
188,93500,436,18,31,12,7,-8,0,1,0,0,0,0,0,0,1,0,0,0
189,94000,471,19,31,12,8,-7,0,1,0,0,0,0,0,0,1,0,0,0
190,94500,494,20,31,11,9,-6,0,1,0,0,0,0,0,0,1,0,0,0
191,95000,505,18,32,9,7,-7,0,1,0,0,0,0,0,0,1,0,0,0
192,95500,508,20,31,11,8,-7,0,1,0,0,0,0,0,0,1,0,0,0
193,96000,496,18,30,11,7,-8,0,1,0,0,0,0,0,0,1,0,0,0
194,96500,471,19,31,11,8,-7,0,1,0,0,0,0,0,0,1,0,0,0
195,97000,436,19,31,12,8,-7,0,1,0,0,0,0,0,0,1,0,0,0
196,97500,391,19,31,12,8,-7,0,1,0,0,0,0,0,0,1,0,0,0
197,98000,335,18,31,11,8,-8,0,1,0,0,0,0,0,0,1,0,0,0
198,98500,290,18,30,9,8,-8,0,1,0,0,0,0,0,0,1,0,0,0
199,99000,221,19,31,12,9,-7,0,1,0,0,0,0,0,0,1,0,0,0
200,99500,144,18,30,12,8,-7,0,1,0,0,0,0,0,0,1,0,0,0
201,100000,67,19,31,14,9,-7,0,1,0,0,0,0,0,0,1,0,0,0
202,100500,-11,19,32,14,9,-6,0,1,0,0,0,0,0,0,1,0,0,0
203,101000,-89,20,31,15,9,-7,0,1,0,0,0,0,0,0,1,0,0,0
204,101500,-164,21,31,16,8,-7,0,1,0,0,0,0,0,0,1,0,0,0
205,102000,-257,19,31,16,8,-7,0,1,0,0,0,0,0,0,1,0,0,0
206,102500,-317,18,31,15,9,-6,0,1,0,0,0,0,0,0,1,0,0,0
207,103000,-374,20,31,15,9,-6,0,1,0,0,0,0,0,0,1,0,0,0
208,103500,-421,19,30,16,8,-7,0,1,0,0,0,0,0,0,1,0,0,0
209,104000,-456,20,31,16,9,-7,0,1,0,0,0,0,0,0,1,0,0,0
210,104500,-482,20,31,17,8,-7,0,1,0,0,0,0,0,0,1,0,0,0
211,105000,-491,19,31,16,7,-8,0,1,0,0,0,0,0,0,1,0,0,0
212,105500,-491,18,31,16,6,-8,0,1,0,0,0,0,0,0,1,0,0,0
213,106000,-482,19,31,16,6,-7,0,1,0,0,0,0,0,0,1,0,0,0
214,106500,-457,19,30,16,6,-8,0,1,0,0,0,0,0,0,1,0,0,0
215,107000,-421,18,31,15,9,-7,0,1,0,0,0,0,0,0,1,0,0,0
216,107500,-374,18,31,15,7,-7,0,1,0,0,0,0,0,0,1,0,0,0
217,108000,-317,18,30,15,8,-8,0,1,0,0,0,0,0,0,1,0,0,0
218,108500,-252,18,30,15,6,-8,0,1,0,0,0,0,0,0,1,0,0,0
219,109000,-162,20,31,15,8,-7,0,1,0,0,0,0,0,0,1,0,0,0
220,109500,-86,20,31,13,9,-7,0,1,0,0,0,0,0,0,1,0,0,0
221,110000,-7,19,31,12,9,-6,0,1,0,0,0,0,0,0,1,0,0,0
222,110500,71,19,31,14,8,-7,0,1,0,0,0,0,0,0,1,0,0,0
223,111000,149,19,31,13,8,-7,0,1,0,0,0,0,0,0,1,0,0,0
224,111500,223,20,31,9,9,-7,0,1,0,0,0,0,0,0,1,0,0,0
225,112000,291,18,31,9,7,-7,0,1,0,0,0,0,0,0,1,0,0,0
226,112500,337,18,31,12,8,-7,0,1,0,0,0,0,0,0,1,0,0,0
227,113000,392,18,30,11,7,-7,0,1,0,0,0,0,0,0,1,0,0,0
228,113500,436,18,31,11,7,-8,0,1,0,0,0,0,0,0,1,0,0,0
229,114000,471,19,31,11,9,-7,0,1,0,0,0,0,0,0,1,0,0,0
230,114500,494,18,31,9,8,-8,0,1,0,0,0,0,0,0,1,0,0,0
231,115000,505,18,31,9,6,-7,0,1,0,0,0,0,0,0,1,0,0,0
232,115500,508,18,32,9,7,-7,0,1,0,0,0,0,0,0,1,0,0,0
233,116000,496,19,31,11,8,-7,0,1,0,0,0,0,0,0,1,0,0,0
234,116500,471,18,32,9,7,-6,0,1,0,0,0,0,0,0,1,0,0,0
235,117000,436,19,31,11,8,-6,0,1,0,0,0,0,0,0,1,0,0,0
236,117500,390,18,30,11,8,-7,0,1,0,0,0,0,0,0,1,0,0,0
237,118000,332,18,30,11,8,-7,0,1,0,0,0,0,0,0,1,0,0,0
238,118500,289,18,32,9,6,-7,0,1,0,0,0,0,0,0,1,0,0,0
239,119000,218,18,31,9,6,-7,0,1,0,0,0,0,0,0,1,0,0,0
240,119500,144,18,31,11,6,-8,0,1,0,0,0,0,0,0,1,0,0,0
241,120000,65,18,30,12,6,-8,0,1,0,0,0,0,0,0,1,0,0,0
242,120500,-14,21,31,12,8,-7,0,1,0,0,0,0,0,0,1,0,0,0
243,121000,-94,19,31,14,8,-7,0,1,0,0,0,0,0,0,1,0,0,0
244,121500,-169,19,31,13,8,-7,0,1,0,0,0,0,0,0,1,0,0,0
245,122000,-257,19,30,14,7,-7,0,1,0,0,0,0,0,0,1,0,0,0
246,122500,-322,20,31,13,8,-7,0,1,0,0,0,0,0,0,1,0,0,0
247,123000,-378,19,31,14,7,-7,0,1,0,0,0,0,0,0,1,0,0,0
248,123500,-421,19,31,15,6,-7,0,1,0,0,0,0,0,0,1,0,0,0
249,124000,-456,19,30,15,8,-7,0,1,0,0,0,0,0,0,1,0,0,0
250,124500,-482,19,31,14,8,-7,0,1,0,0,0,0,0,0,1,0,0,0
251,125000,-491,19,31,15,8,-7,0,1,0,0,0,0,0,0,1,0,0,0
252,125500,-491,18,32,14,9,-6,0,1,0,0,0,0,0,0,1,0,0,0
253,126000,-482,18,31,15,7,-8,0,1,0,0,0,0,0,0,1,0,0,0
254,126500,-456,19,30,15,6,-8,0,1,0,0,0,0,0,0,1,0,0,0
255,127000,-417,21,31,13,8,-7,0,1,0,0,0,0,0,0,1,0,0,0
256,127500,-370,19,30,14,8,-8,0,1,0,0,0,0,0,0,1,0,0,0
257,128000,-317,20,31,13,8,-7,0,1,0,0,0,0,0,0,1,0,0,0
258,128500,-249,19,31,14,7,-7,0,1,0,0,0,0,0,0,1,0,0,0
259,129000,-159,18,31,13,8,-7,0,1,0,0,0,0,0,0,1,0,0,0
260,129500,-85,18,30,12,8,-8,0,1,0,0,0,0,0,0,1,0,0,0
261,130000,-6,18,30,12,6,-8,0,1,0,0,0,0,0,0,1,0,0,0
262,130500,75,18,30,12,6,-8,0,1,0,0,0,0,0,0,1,0,0,0
263,131000,152,19,31,12,8,-7,0,1,0,0,0,0,0,0,1,0,0,0
264,131500,224,18,33,9,8,-7,0,1,0,0,0,0,0,0,1,0,0,0
265,132000,295,20,32,8,9,-7,0,1,0,0,0,0,0,0,1,0,0,0
266,132500,339,19,31,9,9,-7,0,1,0,0,0,0,0,0,1,0,0,0
267,133000,393,20,31,9,9,-7,0,1,0,0,0,0,0,0,1,0,0,0
268,133500,439,18,31,9,7,-7,0,1,0,0,0,0,0,0,1,0,0,0
269,134000,471,18,32,9,6,-7,0,1,0,0,0,0,0,0,1,0,0,0
270,134500,496,19,31,9,8,-7,0,1,0,0,0,0,0,0,1,0,0,0
271,135000,505,18,30,9,6,-8,0,1,0,0,0,0,0,0,1,0,0,0
272,135500,505,18,30,9,6,-8,0,1,0,0,0,0,0,0,1,0,0,0
273,136000,495,18,32,9,7,-7,0,1,0,0,0,0,0,0,1,0,0,0
274,136500,470,20,31,9,9,-7,0,1,0,0,0,0,0,0,1,0,0,0
275,137000,435,18,32,9,7,-7,0,1,0,0,0,0,0,0,1,0,0,0
276,137500,389,19,31,11,8,-7,0,1,0,0,0,0,0,0,1,0,0,0
277,138000,332,18,32,9,6,-7,0,1,0,0,0,0,0,0,1,0,0,0
278,138500,286,19,31,9,8,-7,0,1,0,0,0,0,0,0,1,0,0,0
279,139000,215,19,31,9,8,-7,0,1,0,0,0,0,0,0,1,0,0,0
280,139500,140,18,30,9,7,-8,0,1,0,0,0,0,0,0,1,0,0,0
281,140000,62,19,31,11,8,-7,0,1,0,0,0,0,0,0,1,0,0,0
282,140500,-17,19,30,12,7,-8,0,1,0,0,0,0,0,0,1,0,0,0
283,141000,-94,18,31,12,8,-7,0,1,0,0,0,0,0,0,1,0,0,0
284,141500,-170,18,30,12,7,-8,0,1,0,0,0,0,0,0,1,0,0,0
285,142000,-257,19,30,12,6,-8,0,1,0,0,0,0,0,0,1,0,0,0
286,142500,-322,20,31,12,8,-7,0,1,0,0,0,0,0,0,1,0,0,0
287,143000,-378,18,31,12,9,-7,0,1,0,0,0,0,0,0,1,0,0,0
288,143500,-421,20,31,12,9,-7,0,1,0,0,0,0,0,0,1,0,0,0
289,144000,-456,19,31,15,8,-7,0,1,0,0,0,0,0,0,1,0,0,0
290,144500,-482,19,30,15,6,-8,0,1,0,0,0,0,0,0,1,0,0,0
291,145000,-492,19,31,15,8,-7,0,1,0,0,0,0,0,0,1,0,0,0
292,145500,-495,19,31,14,8,-7,0,1,0,0,0,0,0,0,1,0,0,0
293,146000,-482,20,31,13,8,-7,0,1,0,0,0,0,0,0,1,0,0,0
294,146500,-456,19,31,12,8,-7,0,1,0,0,0,0,0,0,1,0,0,0
295,147000,-417,20,31,12,8,-7,0,1,0,0,0,0,0,0,1,0,0,0
296,147500,-369,19,31,15,7,-8,0,1,0,0,0,0,0,0,1,0,0,0
297,148000,-312,19,31,15,8,-8,0,1,0,0,0,0,0,0,1,0,0,0
298,148500,-248,18,31,13,8,-8,0,1,0,0,0,0,0,0,1,0,0,0
299,149000,-158,20,31,12,8,-7,0,1,0,0,0,0,0,0,1,0,0,0
300,149500,-81,20,31,12,9,-7,0,1,0,0,0,0,0,0,1,0,0,0
301,150000,-5,20,31,12,9,-7,0,1,0,0,0,0,0,0,1,0,0,0
302,150500,75,19,31,12,8,-7,0,1,0,0,0,0,0,0,1,0,0,0
303,151000,155,18,32,9,8,-7,0,1,0,0,0,0,0,0,1,0,0,0
304,151500,226,18,31,9,6,-6,0,1,0,0,0,0,0,0,1,0,0,0
305,152000,296,20,31,8,8,-7,0,1,0,0,0,0,0,0,1,0,0,0
306,152500,341,20,31,9,9,-7,0,1,0,0,0,0,0,0,1,0,0,0
307,153000,396,18,30,9,7,-8,0,1,0,0,0,0,0,0,1,0,0,0
308,153500,441,19,31,9,8,-8,0,1,0,0,0,0,0,0,1,0,0,0
309,154000,474,19,31,9,8,-7,0,1,0,0,0,0,0,0,1,0,0,0
310,154500,496,18,31,9,7,-8,0,1,0,0,0,0,0,0,1,0,0,0
311,155000,505,19,31,9,8,-7,0,1,0,0,0,0,0,0,1,0,0,0
312,155500,505,18,30,9,8,-8,0,1,0,0,0,0,0,0,1,0,0,0
313,156000,495,18,31,9,6,-7,0,1,0,0,0,0,0,0,1,0,0,0
314,156500,470,18,31,9,6,-7,0,1,0,0,0,0,0,0,1,0,0,0
315,157000,434,18,31,9,6,-7,0,1,0,0,0,0,0,0,1,0,0,0
316,157500,384,18,30,9,8,-7,0,1,0,0,0,0,0,0,1,0,0,0
317,158000,331,19,31,11,8,-7,0,1,0,0,0,0,0,0,1,0,0,0
318,158500,284,18,31,9,6,-8,0,1,0,0,0,0,0,0,1,0,0,0
319,159000,215,18,31,9,8,-7,0,1,0,0,0,0,0,0,1,0,0,0
320,159500,139,20,31,9,9,-7,0,1,0,0,0,0,0,0,1,0,0,0
321,160000,61,18,30,11,7,-8,0,1,0,0,0,0,0,0,1,0,0,0
322,160500,-19,18,30,12,6,-8,0,1,0,0,0,0,0,0,1,0,0,0
323,161000,-98,18,30,12,6,-8,0,1,0,0,0,0,0,0,1,0,0,0
324,161500,-172,19,30,12,8,-9,0,1,0,0,0,0,0,0,1,0,0,0
325,162000,-258,18,30,12,6,-8,0,1,0,0,0,0,0,0,1,0,0,0
326,162500,-326,18,30,12,6,-8,0,1,0,0,0,0,0,0,1,0,0,0
327,163000,-378,18,30,14,6,-8,0,1,0,0,0,0,0,0,1,0,0,0
328,163500,-422,18,30,14,6,-8,0,1,0,0,0,0,0,0,1,0,0,0
329,164000,-457,18,30,14,6,-8,0,1,0,0,0,0,0,0,1,0,0,0
330,164500,-482,20,31,13,8,-7,0,1,0,0,0,0,0,0,1,0,0,0
331,165000,-492,19,30,15,6,-7,0,1,0,0,0,0,0,0,1,0,0,0
332,165500,-491,19,31,15,8,-8,0,1,0,0,0,0,0,0,1,0,0,0
333,166000,-477,19,31,15,8,-8,0,1,0,0,0,0,0,0,1,0,0,0
334,166500,-452,18,31,13,9,-7,0,1,0,0,0,0,0,0,1,0,0,0
335,167000,-417,18,31,14,7,-8,0,1,0,0,0,0,0,0,1,0,0,0
336,167500,-369,18,30,14,8,-8,0,1,0,0,0,0,0,0,1,0,0,0
337,168000,-309,20,31,13,9,-7,0,1,0,0,0,0,0,0,1,0,0,0
338,168500,-248,18,31,12,7,-8,0,1,0,0,0,0,0,0,1,0,0,0
339,169000,-156,19,31,12,8,-7,0,1,0,0,0,0,0,0,1,0,0,0
340,169500,-81,18,31,12,8,-7,0,1,0,0,0,0,0,0,1,0,0,0
341,170000,-1,18,30,12,8,-7,0,1,0,0,0,0,0,0,1,0,0,0
342,170500,78,18,30,12,6,-8,0,1,0,0,0,0,0,0,1,0,0,0
343,171000,156,19,31,12,8,-7,0,1,0,0,0,0,0,0,1,0,0,0
344,171500,230,20,31,9,9,-8,0,1,0,0,0,0,0,0,1,0,0,0
345,172000,298,20,31,8,9,-7,0,1,0,0,0,0,0,0,1,0,0,0
346,172500,341,18,30,9,8,-8,0,1,0,0,0,0,0,0,1,0,0,0
347,173000,397,19,31,9,9,-7,0,1,0,0,0,0,0,0,1,0,0,0
348,173500,442,19,31,9,8,-7,0,1,0,0,0,0,0,0,1,0,0,0
349,174000,474,18,31,9,8,-6,0,1,0,0,0,0,0,0,1,0,0,0
350,174500,496,19,31,9,9,-7,0,1,0,0,0,0,0,0,1,0,0,0
351,175000,505,19,30,9,8,-8,0,1,0,0,0,0,0,0,1,0,0,0
352,175500,505,18,30,9,7,-8,0,1,0,0,0,0,0,0,1,0,0,0
353,176000,494,18,32,9,8,-7,0,1,0,0,0,0,0,0,1,0,0,0
354,176500,469,19,31,9,9,-7,0,1,0,0,0,0,0,0,1,0,0,0
355,177000,432,18,30,9,7,-8,0,1,0,0,0,0,0,0,1,0,0,0
356,177500,384,18,33,9,6,-7,0,1,0,0,0,0,0,0,1,0,0,0
357,178000,329,20,32,9,8,-7,0,1,0,0,0,0,0,0,1,0,0,0
358,178500,283,19,31,9,8,-8,0,1,0,0,0,0,0,0,1,0,0,0
359,179000,211,18,31,9,6,-8,0,1,0,0,0,0,0,0,1,0,0,0
360,179500,135,19,31,9,9,-8,0,1,0,0,0,0,0,0,1,0,0,0
361,180000,58,18,30,12,7,-8,0,1,0,0,0,0,0,0,1,0,0,0
362,180500,-22,18,31,12,9,-7,0,1,0,0,0,0,0,0,1,0,0,0
363,181000,-100,19,31,14,8,-7,0,1,0,0,0,0,0,0,1,0,0,0
364,181500,-175,19,30,14,6,-8,0,1,0,0,0,0,0,0,1,0,0,0
365,182000,-265,18,31,13,8,-7,0,1,0,0,0,0,0,0,1,0,0,0
366,182500,-326,19,31,12,7,-8,0,1,0,0,0,0,0,0,1,0,0,0
367,183000,-379,19,30,14,6,-8,0,1,0,0,0,0,0,0,1,0,0,0
368,183500,-426,20,31,13,8,-8,0,1,0,0,0,0,0,0,1,0,0,0
369,184000,-459,19,30,14,8,-8,0,1,0,0,0,0,0,0,1,0,0,0
